
**** 01/11/23 21:23:05 ****** PSpice Lite (October 2012) ****** ID# 10813 ****

 ** Profile: "SCHEMATIC1-OCP"  [ d:\1faculta\onedrive - universitatea politehnica bucuresti\cursuri inregistrate\an 3 sem 1\proiect 1


 ****     CIRCUIT DESCRIPTION


******************************************************************************




** Creating circuit file "OCP.cir" 
** WARNING: THIS AUTOMATICALLY GENERATED FILE MAY BE OVERWRITTEN BY SUBSEQUENT SIMULATIONS

*Libraries: 
* Profile Libraries :
* Local Libraries :
.LIB "D:/OrCAD/OrCAD_16.6_Lite/tools/pspice/library/MJD31CG.lib" 
.LIB "D:/OrCAD/OrCAD_16.6_Lite/tools/pspice/library/BC817-25.lib" 
.LIB "D:/OrCAD/OrCAD_16.6_Lite/tools/pspice/library/BC807-25.lib" 
.LIB "D:/OrCAD/OrCAD_16.6_Lite/tools/pspice/library/BZX84C10.lib" 
.LIB "D:/OrCAD/OrCAD_16.6_Lite/tools/pspice/library/BZX84C5V1.lib" 
.LIB "D:/OrCAD/OrCAD_16.6_Lite/tools/pspice/library/BZX84C2V7.lib" 
.LIB "D:/OrCAD/OrCAD_16.6_Lite/tools/pspice/library/MMBFJ309LT1G.lib" 
* From [PSPICE NETLIST] section of C:\Users\Tudor\AppData\Roaming\SPB_16.6\cdssetup\OrCAD_PSpice/16.6.0/PSpice.ini file:
.lib "nomd.lib" 

*Analysis directives: 
.TRAN  0 20s 0 0.1s 
.OPTIONS ADVCONV
.PROBE64 V(alias(*)) I(alias(*)) W(alias(*)) D(alias(*)) NOISE(alias(*)) 
.INC "..\SCHEMATIC1.net" 



**** INCLUDING SCHEMATIC1.net ****
* source OCP
J_Q1         VIN N100033 N100495 JMMBFJ309LT1 
D_D5         N100787 N101199 BZX84-C2V7 
D_D1         N100637 N100033 BZX84-C5V1 
R_R12         N101151 N101145  680 TC=0,0 
R_R7         0 N99991  100k TC=0,0 
D_D4         N101199 N101193 BZX84-C5V1 
R_R11         N101145 VOUT  15k TC=0,0 
V_V1         VIN 0 23.5V
R_R8         N100091 N1003030  10 TC=0,0 
R_R6         N99991 N100091  4.7k TC=0,0 
C_C3         0 VOUT  4.7u  TC=0,0 
R_R1         N100033 N100495  150 TC=0,0 
Q_Q2         N100673 N100673 N101113 QBC807-25 
C_C2         0 N100033  4.7u  TC=0,0 
R_R14         0 N100535  15k TC=0,0 
C_C1         0 VIN  4.7u  TC=0,0 
Q_Q3         N100013 N100673 N100019 QBC807-25 
D_D3         N101193 VOUT BZX84-C10 
R_R2         0 N101023  500 TC=0,0 
X_R13         N100535 N100571 N101151 POT PARAMS: SET=1 VALUE=2k
Q_Q5         N100013 N100571 N100151 QBC817-25 
C_C4         0 VOUT  4.7u  TC=0,0 
Q_Q8         VOUT N100787 0 QMJD31C 
Q_Q7         N100013 N99991 VOUT QBC817-25 
R_RL         N101428 VOUT  1 TC=0,0 
R_R10         N1003250 VOUT  1 TC=0,0 
Q_Q9         VIN N100013 N100091 QMJD31C 
R_R3         N101113 VIN  1k TC=0,0 
R_R4         N100019 VIN  1k TC=0,0 
Q_Q4         N100673 N100033 N100151 QBC817-25 
R_R9         N1003030 N1003250  10 TC=0,0 
R_R5         0 N100787  100 TC=0,0 
D_D2         0 N100637 BZX84-C2V7 
Q_Q6         N100151 N100637 N101023 QBC817-25 
V_V2         N101428 0  
+PWL 0 17V 10 0V 

**** RESUMING OCP.cir ****
.END

**** 01/11/23 21:23:05 ****** PSpice Lite (October 2012) ****** ID# 10813 ****

 ** Profile: "SCHEMATIC1-OCP"  [ d:\1faculta\onedrive - universitatea politehnica bucuresti\cursuri inregistrate\an 3 sem 1\proiect 1


 ****     Diode MODEL PARAMETERS


******************************************************************************




               BZX84-C10       BZX84-C5V1      BZX84-C2V7      
          IS  110.880000E-18    2.666500E-18  110.880000E-18 
           N     .92657          .82284          .92657      
         ISR   49.142000E-12  150.400000E-12    1.515900E-06 
         IKF  149.75             .01176       147.68         
          BV   10.124           5.176           2.7639       
         IBV     .72438          .10454          .06977      
          RS     .85899          .51617          .85899      
          TT  973.820000E-09   43.858000E-09   17.889000E-09 
         CJO   57.292000E-12  232.290000E-12  344.690000E-12 
          VJ     .67995          .79587          .72935      
           M     .33236          .35004          .31964      


**** 01/11/23 21:23:05 ****** PSpice Lite (October 2012) ****** ID# 10813 ****

 ** Profile: "SCHEMATIC1-OCP"  [ d:\1faculta\onedrive - universitatea politehnica bucuresti\cursuri inregistrate\an 3 sem 1\proiect 1


 ****     BJT MODEL PARAMETERS


******************************************************************************




               QMJD31C         QBC817-25       QBC807-25       
               NPN             NPN             PNP             
       LEVEL    1               1               1            
          IS   90.620200E-12   91.980000E-15  108.000000E-15 
          EG    1.05                                         
          BF    3.418700E+03  338.8           385.7          
          NF    1.17603         1.003            .99         
         VAF   29.2393        107.9            31.29         
         IKF     .108267         .4913           .3603       
         ISE  537.193000E-09  446.800000E-18   27.130000E-15 
          NE    4               1.65            1.4          
          BR  367.353          29.48           20.57         
          NR    5               1.002            .9849       
         VAR    1.631          25              11.62         
         IKR    1.15207          .193            .054        
         ISC    1.157540E-09    5.109000E-15  506.200000E-15 
          NC    1.49179         1.071           1.295        
         ISS    0               0               0            
          RB   22.4853          1               1            
         RBM    1.000000E-12    1                .5          
         IRB    2.209370E-03    1.000000E+03    1.000000E-06 
          RE  100.000000E-06     .2126           .1415       
          RC     .138633         .143            .2623       
         CJE  373.889000E-12   38.250000E-12   51.140000E-12 
         VJE     .67672          .7004           .8911       
         MJE     .575056         .364            .4417       
         CJC  352.510000E-12   12.700000E-12   26.560000E-12 
         VJC     .884306         .4431           .62         
         MJC     .473486         .3983           .4836       
        XCJC     .1              .4555           .459        
         CJS    0               0               0            
         VJS     .75             .75             .75         
         MJS     .5              .333            .333        
          FC     .8              .905            .99         
          TF   10.000000E-09  522.900000E-12  735.900000E-12 
         XTF    3.4926        219.7             1.859        
         VTF   12.6615          3.502           3.813        
         ITF     .052395        7.257            .4393       
          TR    3.298030E-06   70.000000E-12   50.000000E-09 
         XTB  999.997000E-15                                 
         XTI    1.000000E-12                                 
          KF    0               0               0            
          AF    1               1               1            
          CN    2.42            2.42            2.2          
           D     .87             .87             .52         


**** 01/11/23 21:23:05 ****** PSpice Lite (October 2012) ****** ID# 10813 ****

 ** Profile: "SCHEMATIC1-OCP"  [ d:\1faculta\onedrive - universitatea politehnica bucuresti\cursuri inregistrate\an 3 sem 1\proiect 1


 ****     Junction FET MODEL PARAMETERS


******************************************************************************




               JMMBFJ309LT1    
               NJF             
         VTO   -1.7          
        BETA    5.560100E-03 
      LAMBDA     .02184      
          IS    1.333600E-12 
          RD     .1          
          RS     .1          
         CGD    5.351520E-12 
         CGS    5.071890E-12 
          PB    2.41896      
          KF    9.999820E-21 
          AF     .200092     


**** 01/11/23 21:23:05 ****** PSpice Lite (October 2012) ****** ID# 10813 ****

 ** Profile: "SCHEMATIC1-OCP"  [ d:\1faculta\onedrive - universitatea politehnica bucuresti\cursuri inregistrate\an 3 sem 1\proiect 1


 ****     INITIAL TRANSIENT SOLUTION       TEMPERATURE =   27.000 DEG C


******************************************************************************



 NODE   VOLTAGE     NODE   VOLTAGE     NODE   VOLTAGE     NODE   VOLTAGE


(  VIN)   23.5000  ( VOUT)   17.0670  (N99991)   17.6440 (N100013)   19.1330    

(N100019)   21.0750                   (N100033)    7.8059                       

(N100091)   18.4790                   (N100151)    7.1850                       

(N100495)    8.6377                   (N100535)    7.7964                       

(N100571)    7.7964                   (N100637)    2.7031                       

(N100673)   20.4640                   (N100787) 242.3E-06                       

(N101023)    2.0661                   (N101113)   21.0770                       

(N101145)    9.2017                   (N101151)    8.8451                       

(N101193)    7.2692                   (N101199)    2.3692                       

(N101428)   17.0000                   (N1003030)   17.8070                      

(N1003250)   17.1340                  




    VOLTAGE SOURCE CURRENTS
    NAME         CURRENT

    V_V1        -7.746E-02
    V_V2         6.711E-02

    TOTAL POWER DISSIPATION   6.80E-01  WATTS



          JOB CONCLUDED

**** 01/11/23 21:23:05 ****** PSpice Lite (October 2012) ****** ID# 10813 ****

 ** Profile: "SCHEMATIC1-OCP"  [ d:\1faculta\onedrive - universitatea politehnica bucuresti\cursuri inregistrate\an 3 sem 1\proiect 1


 ****     JOB STATISTICS SUMMARY


******************************************************************************



  Total job time (using Solver 1)   =         .05
