
**** 01/11/23 09:07:19 ****** PSpice Lite (October 2012) ****** ID# 10813 ****

 ** Profile: "SCHEMATIC1-bias"  [ d:\1faculta\onedrive - universitatea politehnica bucuresti\cursuri inregistrate\an 3 sem 1\proiect 


 ****     CIRCUIT DESCRIPTION


******************************************************************************




** Creating circuit file "bias.cir" 
** WARNING: THIS AUTOMATICALLY GENERATED FILE MAY BE OVERWRITTEN BY SUBSEQUENT SIMULATIONS

*Libraries: 
* Profile Libraries :
* Local Libraries :
.LIB "D:/OrCAD/OrCAD_16.6_Lite/tools/pspice/library/MMBFJ309LT1G.lib" 
.LIB "D:/OrCAD/OrCAD_16.6_Lite/tools/pspice/library/BZX84C10.lib" 
.LIB "D:/OrCAD/OrCAD_16.6_Lite/tools/pspice/library/MJD31CG.lib" 
.LIB "D:/OrCAD/OrCAD_16.6_Lite/tools/pspice/library/BC817-25.lib" 
.LIB "D:/OrCAD/OrCAD_16.6_Lite/tools/pspice/library/BC807-25.lib" 
.LIB "D:/OrCAD/OrCAD_16.6_Lite/tools/pspice/library/BZX84C2V7.lib" 
.LIB "D:/OrCAD/OrCAD_16.6_Lite/tools/pspice/library/BZX84C5V1.lib" 
* From [PSPICE NETLIST] section of C:\Users\Tudor\AppData\Roaming\SPB_16.6\cdssetup\OrCAD_PSpice/16.6.0/PSpice.ini file:
.lib "nomd.lib" 

*Analysis directives: 
.OP
.OPTIONS ADVCONV
.PROBE64 V(alias(*)) I(alias(*)) W(alias(*)) D(alias(*)) NOISE(alias(*)) 
.INC "..\SCHEMATIC1.net" 



**** INCLUDING SCHEMATIC1.net ****
* source DC_BIAS
C_C2         0 N100033  4.7u  TC=0,0 
R_R14         0 N100535  15k TC=0,0 
C_C1         0 VIN  4.7u  TC=0,0 
R_R6         N99991 N100091  4.7k TC=0,0 
R_R4         N100019 VIN  1k TC=0,0 
Q_Q2         N100673 N100673 N101113 QBC807-25 
D_D3         N101193 VOUT BZX84-C10 
R_R11         N101145 VOUT  15k TC=0,0 
R_R3         N101113 VIN  1k TC=0,0 
Q_Q5         N100013 N100571 N100151 QBC817-25 
R_R5         0 N100787  100 TC=0,0 
X_R13         N100535 N100571 N101151 POT PARAMS: SET=1 VALUE=5k
R_R12         N101151 N101145  680 TC=0,0 
R_R2         0 N101023  500 TC=0,0 
D_D1         N100637 N100033 BZX84-C5V1 
C_C3         0 VOUT  4.7u  TC=0,0 
R_R7         0 N99991  100k TC=0,0 
R_RL         0 VOUT  470 TC=0,0 
J_Q1         VIN N100033 N100495 JMMBFJ309LT1 
R_R1         N100033 N100495  150 TC=0,0 
R_R9         N1003030 N1003250  10 TC=0,0 
Q_Q7         N100013 N99991 VOUT QBC817-25 
D_D4         N101199 N101193 BZX84-C5V1 
R_R10         N1003250 VOUT  1 TC=0,0 
Q_Q9         VIN N100013 N100091 QMJD31C 
D_D2         0 N100637 BZX84-C2V7 
R_R8         N100091 N1003030  10 TC=0,0 
C_C4         0 VOUT  4.7u  TC=0,0 
Q_Q4         N100673 N100033 N100151 QBC817-25 
V_V1         VIN 0 22v
Q_Q3         N100013 N100673 N100019 QBC807-25 
Q_Q6         N100151 N100637 N101023 QBC817-25 
Q_Q8         VOUT N100787 0 QMJD31C 
D_D5         N100787 N101199 BZX84-C2V7 

**** RESUMING bias.cir ****
.END

**** 01/11/23 09:07:19 ****** PSpice Lite (October 2012) ****** ID# 10813 ****

 ** Profile: "SCHEMATIC1-bias"  [ d:\1faculta\onedrive - universitatea politehnica bucuresti\cursuri inregistrate\an 3 sem 1\proiect 


 ****     Diode MODEL PARAMETERS


******************************************************************************




               BZX84-C10       BZX84-C2V7      BZX84-C5V1      
          IS  110.880000E-18  110.880000E-18    2.666500E-18 
           N     .92657          .92657          .82284      
         ISR   49.142000E-12    1.515900E-06  150.400000E-12 
         IKF  149.75          147.68             .01176      
          BV   10.124           2.7639          5.176        
         IBV     .72438          .06977          .10454      
          RS     .85899          .85899          .51617      
          TT  973.820000E-09   17.889000E-09   43.858000E-09 
         CJO   57.292000E-12  344.690000E-12  232.290000E-12 
          VJ     .67995          .72935          .79587      
           M     .33236          .31964          .35004      


**** 01/11/23 09:07:19 ****** PSpice Lite (October 2012) ****** ID# 10813 ****

 ** Profile: "SCHEMATIC1-bias"  [ d:\1faculta\onedrive - universitatea politehnica bucuresti\cursuri inregistrate\an 3 sem 1\proiect 


 ****     BJT MODEL PARAMETERS


******************************************************************************




               QMJD31C         QBC817-25       QBC807-25       
               NPN             NPN             PNP             
       LEVEL    1               1               1            
          IS   90.620200E-12   91.980000E-15  108.000000E-15 
          EG    1.05                                         
          BF    3.418700E+03  338.8           385.7          
          NF    1.17603         1.003            .99         
         VAF   29.2393        107.9            31.29         
         IKF     .108267         .4913           .3603       
         ISE  537.193000E-09  446.800000E-18   27.130000E-15 
          NE    4               1.65            1.4          
          BR  367.353          29.48           20.57         
          NR    5               1.002            .9849       
         VAR    1.631          25              11.62         
         IKR    1.15207          .193            .054        
         ISC    1.157540E-09    5.109000E-15  506.200000E-15 
          NC    1.49179         1.071           1.295        
         ISS    0               0               0            
          RB   22.4853          1               1            
         RBM    1.000000E-12    1                .5          
         IRB    2.209370E-03    1.000000E+03    1.000000E-06 
          RE  100.000000E-06     .2126           .1415       
          RC     .138633         .143            .2623       
         CJE  373.889000E-12   38.250000E-12   51.140000E-12 
         VJE     .67672          .7004           .8911       
         MJE     .575056         .364            .4417       
         CJC  352.510000E-12   12.700000E-12   26.560000E-12 
         VJC     .884306         .4431           .62         
         MJC     .473486         .3983           .4836       
        XCJC     .1              .4555           .459        
         CJS    0               0               0            
         VJS     .75             .75             .75         
         MJS     .5              .333            .333        
          FC     .8              .905            .99         
          TF   10.000000E-09  522.900000E-12  735.900000E-12 
         XTF    3.4926        219.7             1.859        
         VTF   12.6615          3.502           3.813        
         ITF     .052395        7.257            .4393       
          TR    3.298030E-06   70.000000E-12   50.000000E-09 
         XTB  999.997000E-15                                 
         XTI    1.000000E-12                                 
          KF    0               0               0            
          AF    1               1               1            
          CN    2.42            2.42            2.2          
           D     .87             .87             .52         


**** 01/11/23 09:07:19 ****** PSpice Lite (October 2012) ****** ID# 10813 ****

 ** Profile: "SCHEMATIC1-bias"  [ d:\1faculta\onedrive - universitatea politehnica bucuresti\cursuri inregistrate\an 3 sem 1\proiect 


 ****     Junction FET MODEL PARAMETERS


******************************************************************************




               JMMBFJ309LT1    
               NJF             
         VTO   -1.7          
        BETA    5.560100E-03 
      LAMBDA     .02184      
          IS    1.333600E-12 
          RD     .1          
          RS     .1          
         CGD    5.351520E-12 
         CGS    5.071890E-12 
          PB    2.41896      
          KF    9.999820E-21 
          AF     .200092     


**** 01/11/23 09:07:19 ****** PSpice Lite (October 2012) ****** ID# 10813 ****

 ** Profile: "SCHEMATIC1-bias"  [ d:\1faculta\onedrive - universitatea politehnica bucuresti\cursuri inregistrate\an 3 sem 1\proiect 


 ****     SMALL SIGNAL BIAS SOLUTION       TEMPERATURE =   27.000 DEG C


******************************************************************************



 NODE   VOLTAGE     NODE   VOLTAGE     NODE   VOLTAGE     NODE   VOLTAGE


(  VIN)   22.0000  ( VOUT)   18.2600  (N99991)   18.3340 (N100013)   19.8350    

(N100019)   19.8420                   (N100033)    7.8054                       

(N100091)   19.1960                   (N100151)    7.1703                       

(N100495)    8.6300                   (N100535)    7.6757                       

(N100571)    7.6757                   (N100637)    2.7028                       

(N100673)   19.1630                   (N100787)     .4655                       

(N101023)    2.0658                   (N101113)   19.7720                       

(N101145)   10.5830                   (N101151)   10.2350                       

(N101193)    8.2619                   (N101199)    3.1637                       

(N1003030)   18.7500                  (N1003250)   18.3040                  




    VOLTAGE SOURCE CURRENTS
    NAME         CURRENT

    V_V1        -5.437E-02

    TOTAL POWER DISSIPATION   1.20E+00  WATTS


**** 01/11/23 09:07:19 ****** PSpice Lite (October 2012) ****** ID# 10813 ****

 ** Profile: "SCHEMATIC1-bias"  [ d:\1faculta\onedrive - universitatea politehnica bucuresti\cursuri inregistrate\an 3 sem 1\proiect 


 ****     OPERATING POINT INFORMATION      TEMPERATURE =   27.000 DEG C


******************************************************************************






**** DIODES


NAME         D_D3        D_D1        D_D4        D_D2        D_D5      
MODEL        BZX84-C10   BZX84-C5V1  BZX84-C5V1  BZX84-C2V7  BZX84-C2V7
ID          -4.70E-03   -5.49E-03   -4.70E-03   -5.47E-03   -4.70E-03 
VD          -1.00E+01   -5.10E+00   -5.10E+00   -2.70E+00   -2.70E+00 
REQ          5.50E+00    4.71E+00    5.50E+00    4.73E+00    5.50E+00 
CAP          1.77E-07    9.42E-09    8.09E-09    3.99E-09    3.46E-09 


**** BIPOLAR JUNCTION TRANSISTORS


NAME         Q_Q2        Q_Q5        Q_Q7        Q_Q9        Q_Q4      
MODEL        QBC807-25   QBC817-25   QBC817-25   QMJD31C     QBC817-25 
IB          -6.67E-06    7.86E-08   -5.23E-14    2.77E-04    1.12E-05 
IC          -2.22E-03    2.91E-05    3.29E-12    4.45E-02    4.08E-03 
VBE         -6.10E-01    5.05E-01    7.44E-02    6.40E-01    6.35E-01 
VBC          0.00E+00   -1.22E+01   -1.50E+00   -2.16E+00   -1.14E+01 
VCE         -6.10E-01    1.27E+01    1.58E+00    2.80E+00    1.20E+01 
BETADC       3.33E+02    3.70E+02   -6.29E+01    1.60E+02    3.63E+02 
GM           8.59E-02    1.12E-03    6.30E-11    1.02E+00    1.56E-01 
RPI          3.93E+03    3.30E+05    4.05E+12    2.95E+02    2.31E+03 
RX           6.26E-01    1.00E+00    1.00E+00    1.84E+01    1.00E+00 
RO           1.34E+04    4.05E+06    9.61E+11    4.50E+02    2.86E+04 
CBE          1.48E-10    6.15E-11    3.98E-11    3.90E-08    1.72E-10 
CBC          1.22E-11    1.52E-12    3.21E-12    1.96E-11    1.57E-12 
CJS          0.00E+00    0.00E+00    0.00E+00    0.00E+00    0.00E+00 
BETAAC       3.38E+02    3.69E+02    2.55E+02    3.01E+02    3.60E+02 
CBX/CBX2     1.44E-11    1.82E-12    3.84E-12    1.77E-10    1.87E-12 
FT/FT2       7.82E+07    2.75E+06    2.14E-01    4.15E+06    1.42E+08 



NAME         Q_Q3        Q_Q6        Q_Q8      
MODEL        QBC807-25   QBC817-25   QMJD31C   
IB          -1.85E-03    1.21E-05    4.74E-05 
IC          -3.06E-04    4.12E-03    5.12E-04 
VBE         -6.79E-01    6.37E-01    4.66E-01 
VBC         -6.73E-01   -4.47E+00   -1.78E+01 
VCE         -6.45E-03    5.10E+00    1.83E+01 
BETADC       1.66E-01    3.41E+02    1.08E+01 
GM           5.71E-02    1.57E-01    1.65E-02 
RPI          2.81E+02    2.15E+03    2.14E+03 
RX           5.09E-01    1.00E+00    2.15E+01 
RO           1.28E+00    2.66E+04    7.55E+04 
CBE          7.12E-10    1.73E-10    8.94E-10 
CBC          6.11E-08    2.22E-12    8.32E-12 
CJS          0.00E+00    0.00E+00    0.00E+00 
BETAAC       1.61E+01    3.38E+02    3.55E+01 
CBX/CBX2     7.47E-10    2.65E-12    7.48E-11 
FT/FT2       1.45E+05    1.40E+08    2.69E+06 




**** JFETS


NAME         J_Q1                  
MODEL        JMMBFJ309LT1          
ID           5.50E-03             
VGS         -8.25E-01             
VDS          1.34E+01             
GM           1.26E-02             
GDS          9.29E-05             
CGS          4.38E-12             
CGD          2.04E-12             

          JOB CONCLUDED

**** 01/11/23 09:07:19 ****** PSpice Lite (October 2012) ****** ID# 10813 ****

 ** Profile: "SCHEMATIC1-bias"  [ d:\1faculta\onedrive - universitatea politehnica bucuresti\cursuri inregistrate\an 3 sem 1\proiect 


 ****     JOB STATISTICS SUMMARY


******************************************************************************



  Total job time (using Solver 1)   =         .02
